T5414 4078:414 SEGGER J-Link V6.32i Log File (0001ms, 10083ms total)
T5414 4078:414 DLL Compiled: Jul 24 2018 15:19:55 (0001ms, 10083ms total)
T5414 4078:414 Logging started @ 2021-05-26 12:08 (0002ms, 10084ms total)
T5414 4078:416 JLINK_SetWarnOutHandler(...) (0000ms, 10084ms total)
T5414 4078:416 JLINK_OpenEx(...)
Firmware: J-Link V9 compiled Dec 13 2019 11:14:50
Hardware: V9.60
S/N: 59603194
Feature(s): GDB, RDI, FlashBP, FlashDL, JFlash
TELNET listener socket opened on port 19021WEBSRV 
Starting webserver (0027ms, 10111ms total)
T5414 4078:416 WEBSRV Webserver running on local port 19080 (0028ms, 10112ms total)
T5414 4078:416   returns O.K. (0028ms, 10112ms total)
T5414 4078:444 JLINK_GetEmuCaps()  returns 0xB9FF7BBF (0000ms, 10112ms total)
T5414 4078:445 JLINK_TIF_GetAvailable(...) (0001ms, 10113ms total)
T5414 4078:446 JLINK_SetErrorOutHandler(...) (0000ms, 10113ms total)
T5414 4078:446 JLINK_ExecCommand("ProjectFile = "D:\workproject\JZI\project\移动作业机巢\STM32F4-Wheel - V1.1\Project\MDK-ARM\JLinkSettings.ini"", ...).   returns 0x00 (0005ms, 10118ms total)
T5414 4078:477 JLINK_ExecCommand("Device = STM32F407VE", ...). Device "STM32F407VE" selected.  returns 0x00 (0007ms, 10125ms total)
T5414 4078:484 JLINK_ExecCommand("DisableConnectionTimeout", ...).   returns 0x01 (0000ms, 10125ms total)
T5414 4078:484 JLINK_GetHardwareVersion()  returns 0x17700 (0000ms, 10125ms total)
T5414 4078:484 JLINK_GetDLLVersion()  returns 63209 (0000ms, 10125ms total)
T5414 4078:484 JLINK_GetFirmwareString(...) (0000ms, 10125ms total)
T5414 4078:498 JLINK_GetDLLVersion()  returns 63209 (0000ms, 10125ms total)
T5414 4078:498 JLINK_GetCompileDateTime() (0000ms, 10125ms total)
T5414 4078:504 JLINK_GetFirmwareString(...) (0000ms, 10125ms total)
T5414 4078:510 JLINK_GetHardwareVersion()  returns 0x17700 (0000ms, 10125ms total)
T5414 4078:528 JLINK_TIF_Select(JLINKARM_TIF_SWD)  returns 0x00 (0002ms, 10127ms total)
T5414 4078:530 JLINK_SetSpeed(2000) (0001ms, 10128ms total)
T5414 4078:531 JLINK_GetId() >0x10B TIF>Found SW-DP with ID 0x2BA01477 >0x0D TIF> >0x28 TIF> >0x0D TIF> >0x28 TIF> >0x0D TIF> >0x28 TIF> >0x0D TIF> >0x28 TIF> >0x0D TIF> >0x21 TIF> >0x0D TIF> >0x28 TIF> >0x0D TIF> >0x28 TIF> >0x0D TIF> >0x28 TIF> >0x0D TIF> >0x21 TIF> >0x0D TIF> >0x21 TIF> >0x0D TIF> >0x28 TIF> >0x0D TIF> >0x21 TIF> >0x0D TIF> >0x21 TIF> >0x0D TIF> >0x28 TIF> >0x0D TIF> >0x28 TIF> >0x0D TIF> >0x28 TIF> >0x0D TIF> >0x21 TIF> >0x0D TIF> >0x21 TIF> >0x0D TIF> >0x28 TIF> >0x0D TIF>
 >0x28 TIF> >0x0D TIF> >0x28 TIF> >0x0D TIF> >0x21 TIF> >0x0D TIF> >0x21 TIF> >0x0D TIF> >0x28 TIF> >0x0D TIF> >0x21 TIF> >0x0D TIF> >0x21 TIF> >0x0D TIF> >0x28 TIF> >0x0D TIF> >0x21 TIF> >0x0D TIF> >0x21 TIF> >0x10B TIF>Found SW-DP with ID 0x2BA01477 >0x0D TIF> >0x28 TIF> >0x0D TIF> >0x28 TIF> >0x0D TIF> >0x28 TIF> >0x0D TIF> >0x28 TIF> >0x0D TIF> >0x21 TIF> >0x0D TIF> >0x28 TIF>Scanning AP map to find all available APs >0x0D TIF> >0x28 TIF> >0x0D TIF> >0x21 TIF> >0x0D TIF> >0x21 TIF> >0x0D TIF>
 >0x28 TIF> >0x0D TIF> >0x21 TIF> >0x0D TIF> >0x21 TIF>AP[1]: Stopped AP scan as end of AP map has been reachedAP[0]: AHB-AP (IDR: 0x24770011)Iterating through AP map to find AHB-AP to use >0x42 TIF> >0x28 TIF> >0x0D TIF> >0x28 TIF> >0x0D TIF> >0x21 TIF> >0x0D TIF> >0x21 TIF> >0x42 TIF> >0x28 TIF> >0x0D TIF> >0x28 TIF> >0x0D TIF> >0x28 TIF> >0x0D TIF> >0x21 TIF> >0x0D TIF> >0x21 TIF>AP[0]: Core foundAP[0]: AHB-AP ROM base: 0xE00FF000 >0x0D TIF> >0x28 TIF> >0x0D TIF> >0x28 TIF> >0x0D TIF> >0x28 TIF>
 >0x0D TIF> >0x21 TIF> >0x0D TIF> >0x21 TIF>CPUID register: 0x410FC241. Implementer code: 0x41 (ARM)Found Cortex-M4 r0p1, Little endian. -- Max. mem block: 0x00010D88 -- CPU_ReadMem(4 bytes @ 0xE000EDF0) -- CPU_WriteMem(4 bytes @ 0xE000EDF0) -- CPU_ReadMem(4 bytes @ 0xE0002000)FPUnit: 6 code (BP) slots and 2 literal slots -- CPU_ReadMem(4 bytes @ 0xE000EDFC) -- CPU_WriteMem(4 bytes @ 0xE000EDFC) -- CPU_ReadMem(4 bytes @ 0xE0001000) -- CPU_WriteMem(4 bytes @ 0xE0001000)
 -- CPU_ReadMem(4 bytes @ 0xE000ED88) -- CPU_WriteMem(4 bytes @ 0xE000ED88) -- CPU_ReadMem(4 bytes @ 0xE000ED88) -- CPU_WriteMem(4 bytes @ 0xE000ED88)CoreSight components:ROMTbl[0] @ E00FF000 -- CPU_ReadMem(16 bytes @ 0xE00FF000) -- CPU_ReadMem(16 bytes @ 0xE000EFF0) -- CPU_ReadMem(16 bytes @ 0xE000EFE0)ROMTbl[0][0]: E000E000, CID: B105E00D, PID: 000BB00C SCS-M7 -- CPU_ReadMem(16 bytes @ 0xE0001FF0) -- CPU_ReadMem(16 bytes @ 0xE0001FE0)ROMTbl[0][1]: E0001000, CID: B105E00D, PID: 003BB002 DWT
 -- CPU_ReadMem(16 bytes @ 0xE0002FF0) -- CPU_ReadMem(16 bytes @ 0xE0002FE0)ROMTbl[0][2]: E0002000, CID: B105E00D, PID: 002BB003 FPB -- CPU_ReadMem(16 bytes @ 0xE0000FF0) -- CPU_ReadMem(16 bytes @ 0xE0000FE0)ROMTbl[0][3]: E0000000, CID: B105E00D, PID: 003BB001 ITM -- CPU_ReadMem(16 bytes @ 0xE00FF010) -- CPU_ReadMem(16 bytes @ 0xE0040FF0) -- CPU_ReadMem(16 bytes @ 0xE0040FE0)ROMTbl[0][4]: E0040000, CID: B105900D, PID: 000BB9A1 TPIU -- CPU_ReadMem(16 bytes @ 0xE0041FF0)
 -- CPU_ReadMem(16 bytes @ 0xE0041FE0)ROMTbl[0][5]: E0041000, CID: B105900D, PID: 000BB925 ETM >0x0D TIF> >0x21 TIF>  returns 0x2BA01477 (0273ms, 10401ms total)
T5414 4078:804 JLINK_GetDLLVersion()  returns 63209 (0000ms, 10401ms total)
T5414 4078:804 JLINK_CORE_GetFound()  returns 0xE0000FF (0000ms, 10401ms total)
T5414 4078:804 JLINK_GetDebugInfo(0x100 = JLINKARM_ROM_TABLE_ADDR_INDEX) -- Value=0xE00FF000  returns 0x00 (0001ms, 10402ms total)
T5414 4078:808 JLINK_GetDebugInfo(0x100 = JLINKARM_ROM_TABLE_ADDR_INDEX) -- Value=0xE00FF000  returns 0x00 (0000ms, 10402ms total)
T5414 4078:808 JLINK_GetDebugInfo(0x101 = JLINKARM_DEBUG_INFO_ETM_ADDR_INDEX) -- Value=0xE0041000  returns 0x00 (0000ms, 10402ms total)
T5414 4078:808 JLINK_ReadMemEx(0xE0041FD0, 0x0020 Bytes, ..., Flags = 0x02000004) -- CPU_ReadMem(32 bytes @ 0xE0041FD0) - Data: 04 00 00 00 00 00 00 00 00 00 00 00 00 00 00 00 ...  returns 0x20 (0002ms, 10404ms total)
T5414 4078:810 JLINK_GetDebugInfo(0x102 = JLINKARM_DEBUG_INFO_MTB_ADDR_INDEX) -- Value=0x00000000  returns 0x00 (0000ms, 10404ms total)
T5414 4078:810 JLINK_GetDebugInfo(0x103 = JLINKARM_DEBUG_INFO_TPIU_ADDR_INDEX) -- Value=0xE0040000  returns 0x00 (0000ms, 10404ms total)
T5414 4078:810 JLINK_GetDebugInfo(0x104 = JLINKARM_DEBUG_INFO_ITM_ADDR_INDEX) -- Value=0xE0000000  returns 0x00 (0000ms, 10404ms total)
T5414 4078:810 JLINK_GetDebugInfo(0x105 = JLINKARM_DEBUG_INFO_DWT_ADDR_INDEX) -- Value=0xE0001000  returns 0x00 (0001ms, 10405ms total)
T5414 4078:811 JLINK_GetDebugInfo(0x106 = JLINKARM_DEBUG_INFO_FPB_ADDR_INDEX) -- Value=0xE0002000  returns 0x00 (0000ms, 10405ms total)
T5414 4078:811 JLINK_GetDebugInfo(0x107 = JLINKARM_DEBUG_INFO_NVIC_ADDR_INDEX) -- Value=0xE000E000  returns 0x00 (0000ms, 10405ms total)
T5414 4078:811 JLINK_GetDebugInfo(0x10C = JLINKARM_DEBUG_INFO_DBG_ADDR_INDEX) -- Value=0xE000EDF0  returns 0x00 (0000ms, 10405ms total)
T5414 4078:811 JLINK_GetDebugInfo(0x01 = Unknown) -- Value=0x00000001  returns 0x00 (0001ms, 10406ms total)
T5414 4078:812 JLINK_ReadMemU32(0xE000ED00, 0x0001 Items, ...) -- CPU_ReadMem(4 bytes @ 0xE000ED00) - Data: 41 C2 0F 41  returns 0x01 (0001ms, 10407ms total)
T5414 4078:813 JLINK_GetDebugInfo(0x10F = JLINKARM_DEBUG_INFO_HAS_CORTEX_M_SECURITY_EXT_INDEX) -- Value=0x00000000  returns 0x00 (0000ms, 10407ms total)
T5414 4078:814 JLINK_SetResetType(JLINKARM_CM3_RESET_TYPE_NORMAL)  returns JLINKARM_CM3_RESET_TYPE_NORMAL (0000ms, 10408ms total)
T5414 4078:814 JLINK_Reset() -- CPU is running -- CPU_WriteMem(4 bytes @ 0xE000EDF0) -- CPU is running -- CPU_WriteMem(4 bytes @ 0xE000EDFC)Reset: Halt core after reset via DEMCR.VC_CORERESET. >0x35 TIF>Reset: Reset device via AIRCR.SYSRESETREQ. -- CPU is running -- CPU_WriteMem(4 bytes @ 0xE000ED0C) >0x0D TIF> >0x28 TIF> -- CPU_ReadMem(4 bytes @ 0xE000EDF0) -- CPU_ReadMem(4 bytes @ 0xE000EDF0) -- CPU is running -- CPU_WriteMem(4 bytes @ 0xE000EDF0) -- CPU is running -- CPU_WriteMem(4 bytes @ 0xE000EDFC)
 -- CPU_ReadMem(4 bytes @ 0xE000EDF0) -- CPU_WriteMem(4 bytes @ 0xE0002000) -- CPU_ReadMem(4 bytes @ 0xE000EDFC) -- CPU_ReadMem(4 bytes @ 0xE0001000) (0087ms, 10495ms total)
T5414 4078:901 JLINK_Halt()  returns 0x00 (0000ms, 10495ms total)
T5414 4078:901 JLINK_ReadMemU32(0xE000EDF0, 0x0001 Items, ...) -- CPU_ReadMem(4 bytes @ 0xE000EDF0) - Data: 03 00 03 00  returns 0x01 (0002ms, 10497ms total)
T5414 4078:903 JLINK_WriteU32(0xE000EDF0, 0xA05F0003) -- CPU_WriteMem(4 bytes @ 0xE000EDF0)  returns 0x00 (0001ms, 10498ms total)
T5414 4078:904 JLINK_WriteU32(0xE000EDFC, 0x01000000) -- CPU_WriteMem(4 bytes @ 0xE000EDFC)  returns 0x00 (0002ms, 10500ms total)
T5414 4078:917 JLINK_GetHWStatus(...)  returns 0x00 (0001ms, 10501ms total)
T5414 4078:930 JLINK_GetNumBPUnits(Type = 0xFFFFFF00)  returns 0x06 (0000ms, 10501ms total)
T5414 4078:930 JLINK_GetNumBPUnits(Type = 0xF0)  returns 0x2000 (0000ms, 10501ms total)
T5414 4078:930 JLINK_GetNumWPUnits()  returns 0x04 (0000ms, 10501ms total)
T5414 4078:945 JLINK_GetSpeed()  returns 0x7D0 (0000ms, 10501ms total)
T5414 4078:955 JLINK_ReadMemU32(0xE000E004, 0x0001 Items, ...) -- CPU_ReadMem(4 bytes @ 0xE000E004) - Data: 02 00 00 00  returns 0x01 (0001ms, 10502ms total)
T5414 4078:956 JLINK_ReadMemU32(0xE000E004, 0x0001 Items, ...) -- CPU_ReadMem(4 bytes @ 0xE000E004) - Data: 02 00 00 00  returns 0x01 (0001ms, 10503ms total)
T5414 4078:957 JLINK_WriteMemEx(0xE0001000, 0x001C Bytes, ..., Flags = 0x02000004) - Data: 01 00 00 00 00 00 00 00 00 00 00 00 00 00 00 00 ... -- CPU_WriteMem(28 bytes @ 0xE0001000)  returns 0x1C (0002ms, 10505ms total)
T5414 4078:959 JLINK_Halt()  returns 0x00 (0001ms, 10506ms total)
T5414 4078:960 JLINK_IsHalted()  returns TRUE (0000ms, 10506ms total)
T5414 4078:973 JLINK_WriteMem(0x20000000, 0x0188 Bytes, ...) - Data: 00 BE 0A E0 0D 78 2D 06 68 40 08 24 40 00 00 D3 ... -- CPU_WriteMem(392 bytes @ 0x20000000)  returns 0x188 (0006ms, 10512ms total)
T5414 4078:979 JLINK_WriteReg(R0, 0x08000000)  returns 0x00 (0000ms, 10512ms total)
T5414 4078:979 JLINK_WriteReg(R1, 0x017D7840)  returns 0x00 (0001ms, 10513ms total)
T5414 4078:980 JLINK_WriteReg(R2, 0x00000001)  returns 0x00 (0000ms, 10513ms total)
T5414 4078:980 JLINK_WriteReg(R3, 0x00000000)  returns 0x00 (0000ms, 10513ms total)
T5414 4078:980 JLINK_WriteReg(R4, 0x00000000)  returns 0x00 (0000ms, 10513ms total)
T5414 4078:980 JLINK_WriteReg(R5, 0x00000000)  returns 0x00 (0000ms, 10513ms total)
T5414 4078:981 JLINK_WriteReg(R6, 0x00000000)  returns 0x00 (0000ms, 10513ms total)
T5414 4078:981 JLINK_WriteReg(R7, 0x00000000)  returns 0x00 (0000ms, 10513ms total)
T5414 4078:981 JLINK_WriteReg(R8, 0x00000000)  returns 0x00 (0000ms, 10513ms total)
T5414 4078:981 JLINK_WriteReg(R9, 0x20000184)  returns 0x00 (0000ms, 10513ms total)
T5414 4078:981 JLINK_WriteReg(R10, 0x00000000)  returns 0x00 (0000ms, 10513ms total)
T5414 4078:981 JLINK_WriteReg(R11, 0x00000000)  returns 0x00 (0001ms, 10514ms total)
T5414 4078:982 JLINK_WriteReg(R12, 0x00000000)  returns 0x00 (0000ms, 10514ms total)
T5414 4078:982 JLINK_WriteReg(R13 (SP), 0x20001000)  returns 0x00 (0000ms, 10514ms total)
T5414 4078:982 JLINK_WriteReg(R14, 0x20000001)  returns 0x00 (0000ms, 10514ms total)
T5414 4078:982 JLINK_WriteReg(R15 (PC), 0x2000005E)  returns 0x00 (0000ms, 10514ms total)
T5414 4078:982 JLINK_WriteReg(XPSR, 0x01000000)  returns 0x00 (0001ms, 10515ms total)
T5414 4078:983 JLINK_WriteReg(MSP, 0x20001000)  returns 0x00 (0000ms, 10515ms total)
T5414 4078:983 JLINK_WriteReg(PSP, 0x20001000)  returns 0x00 (0000ms, 10515ms total)
T5414 4078:983 JLINK_WriteReg(CFBP, 0x00000000)  returns 0x00 (0000ms, 10515ms total)
T5414 4078:983 JLINK_SetBPEx(Addr = 0x20000000, Type = 0xFFFFFFF2) -- CPU_ReadMem(2 bytes @ 0x20000000)  returns 0x00000001 (0002ms, 10517ms total)
T5414 4078:985 JLINK_Go() -- CPU_WriteMem(2 bytes @ 0x20000000) -- CPU_ReadMem(4 bytes @ 0xE0001000) -- CPU_WriteMem(4 bytes @ 0xE0002008) -- CPU_WriteMem(4 bytes @ 0xE000200C) -- CPU_WriteMem(4 bytes @ 0xE0002010) -- CPU_WriteMem(4 bytes @ 0xE0002014) -- CPU_WriteMem(4 bytes @ 0xE0002018) -- CPU_WriteMem(4 bytes @ 0xE000201C) -- CPU_WriteMem(4 bytes @ 0xE0001004) (0010ms, 10527ms total)
T5414 4078:995 JLINK_IsHalted() -- CPU_ReadMem(2 bytes @ 0x20000000)  returns TRUE (0007ms, 10534ms total)
T5414 4079:002 JLINK_ReadReg(R15 (PC))  returns 0x20000000 (0000ms, 10527ms total)
T5414 4079:002 JLINK_ClrBPEx(BPHandle = 0x00000001)  returns 0x00 (0000ms, 10527ms total)
T5414 4079:003 JLINK_ReadReg(R0)  returns 0x00000000 (0000ms, 10528ms total)
T5414 4079:004 JLINK_WriteReg(R0, 0x08000000)  returns 0x00 (0000ms, 10528ms total)
T5414 4079:004 JLINK_WriteReg(R1, 0x00004000)  returns 0x00 (0000ms, 10528ms total)
T5414 4079:004 JLINK_WriteReg(R2, 0x000000FF)  returns 0x00 (0000ms, 10528ms total)
T5414 4079:004 JLINK_WriteReg(R3, 0x00000000)  returns 0x00 (0000ms, 10528ms total)
T5414 4079:005 JLINK_WriteReg(R4, 0x00000000)  returns 0x00 (0000ms, 10529ms total)
T5414 4079:005 JLINK_WriteReg(R5, 0x00000000)  returns 0x00 (0000ms, 10529ms total)
T5414 4079:005 JLINK_WriteReg(R6, 0x00000000)  returns 0x00 (0000ms, 10529ms total)
T5414 4079:005 JLINK_WriteReg(R7, 0x00000000)  returns 0x00 (0000ms, 10529ms total)
T5414 4079:005 JLINK_WriteReg(R8, 0x00000000)  returns 0x00 (0000ms, 10529ms total)
T5414 4079:005 JLINK_WriteReg(R9, 0x20000184)  returns 0x00 (0000ms, 10529ms total)
T5414 4079:006 JLINK_WriteReg(R10, 0x00000000)  returns 0x00 (0000ms, 10530ms total)
T5414 4079:006 JLINK_WriteReg(R11, 0x00000000)  returns 0x00 (0000ms, 10530ms total)
T5414 4079:006 JLINK_WriteReg(R12, 0x00000000)  returns 0x00 (0000ms, 10530ms total)
T5414 4079:006 JLINK_WriteReg(R13 (SP), 0x20001000)  returns 0x00 (0000ms, 10530ms total)
T5414 4079:006 JLINK_WriteReg(R14, 0x20000001)  returns 0x00 (0000ms, 10530ms total)
T5414 4079:006 JLINK_WriteReg(R15 (PC), 0x20000020)  returns 0x00 (0001ms, 10531ms total)
T5414 4079:007 JLINK_WriteReg(XPSR, 0x01000000)  returns 0x00 (0000ms, 10531ms total)
T5414 4079:007 JLINK_WriteReg(MSP, 0x20001000)  returns 0x00 (0000ms, 10531ms total)
T5414 4079:007 JLINK_WriteReg(PSP, 0x20001000)  returns 0x00 (0000ms, 10531ms total)
T5414 4079:007 JLINK_WriteReg(CFBP, 0x00000000)  returns 0x00 (0000ms, 10531ms total)
T5414 4079:007 JLINK_SetBPEx(Addr = 0x20000000, Type = 0xFFFFFFF2)  returns 0x00000002 (0001ms, 10532ms total)
T5414 4079:008 JLINK_Go() -- CPU_ReadMem(4 bytes @ 0xE0001000) (0004ms, 10536ms total)
T5414 4079:012 JLINK_IsHalted() -- CPU_ReadMem(2 bytes @ 0x20000000)  returns TRUE (0006ms, 10542ms total)
T5414 4079:018 JLINK_ReadReg(R15 (PC))  returns 0x20000000 (0000ms, 10536ms total)
T5414 4079:019 JLINK_ClrBPEx(BPHandle = 0x00000002)  returns 0x00 (0000ms, 10537ms total)
T5414 4079:019 JLINK_ReadReg(R0)  returns 0x00000001 (0000ms, 10537ms total)
T5414 4079:019 JLINK_WriteReg(R0, 0x08000000)  returns 0x00 (0000ms, 10537ms total)
T5414 4079:019 JLINK_WriteReg(R1, 0x00004000)  returns 0x00 (0000ms, 10537ms total)
T5414 4079:019 JLINK_WriteReg(R2, 0x000000FF)  returns 0x00 (0000ms, 10537ms total)
T5414 4079:019 JLINK_WriteReg(R3, 0x00000000)  returns 0x00 (0001ms, 10538ms total)
T5414 4079:020 JLINK_WriteReg(R4, 0x00000000)  returns 0x00 (0000ms, 10538ms total)
T5414 4079:020 JLINK_WriteReg(R5, 0x00000000)  returns 0x00 (0000ms, 10538ms total)
T5414 4079:020 JLINK_WriteReg(R6, 0x00000000)  returns 0x00 (0000ms, 10538ms total)
T5414 4079:020 JLINK_WriteReg(R7, 0x00000000)  returns 0x00 (0000ms, 10538ms total)
T5414 4079:020 JLINK_WriteReg(R8, 0x00000000)  returns 0x00 (0001ms, 10539ms total)
T5414 4079:021 JLINK_WriteReg(R9, 0x20000184)  returns 0x00 (0000ms, 10539ms total)
T5414 4079:021 JLINK_WriteReg(R10, 0x00000000)  returns 0x00 (0000ms, 10539ms total)
T5414 4079:021 JLINK_WriteReg(R11, 0x00000000)  returns 0x00 (0000ms, 10539ms total)
T5414 4079:021 JLINK_WriteReg(R12, 0x00000000)  returns 0x00 (0000ms, 10539ms total)
T5414 4079:021 JLINK_WriteReg(R13 (SP), 0x20001000)  returns 0x00 (0000ms, 10539ms total)
T5414 4079:022 JLINK_WriteReg(R14, 0x20000001)  returns 0x00 (0000ms, 10540ms total)
T5414 4079:022 JLINK_WriteReg(R15 (PC), 0x200000C6)  returns 0x00 (0000ms, 10540ms total)
T5414 4079:022 JLINK_WriteReg(XPSR, 0x01000000)  returns 0x00 (0000ms, 10540ms total)
T5414 4079:022 JLINK_WriteReg(MSP, 0x20001000)  returns 0x00 (0000ms, 10540ms total)
T5414 4079:022 JLINK_WriteReg(PSP, 0x20001000)  returns 0x00 (0001ms, 10541ms total)
T5414 4079:023 JLINK_WriteReg(CFBP, 0x00000000)  returns 0x00 (0000ms, 10541ms total)
T5414 4079:023 JLINK_SetBPEx(Addr = 0x20000000, Type = 0xFFFFFFF2)  returns 0x00000003 (0000ms, 10541ms total)
T5414 4079:023 JLINK_Go() -- CPU_ReadMem(4 bytes @ 0xE0001000) (0004ms, 10545ms total)
T5414 4079:028 JLINK_IsHalted()  returns FALSE (0001ms, 10547ms total)
T5414 4079:314 JLINK_IsHalted()  returns FALSE (0001ms, 10547ms total)
T5414 4079:489 JLINK_IsHalted() -- CPU_ReadMem(2 bytes @ 0x20000000)  returns TRUE (0007ms, 10553ms total)
T5414 4079:496 JLINK_ReadReg(R15 (PC))  returns 0x20000000 (0000ms, 10546ms total)
T5414 4079:496 JLINK_ClrBPEx(BPHandle = 0x00000003)  returns 0x00 (0000ms, 10546ms total)
T5414 4079:496 JLINK_ReadReg(R0)  returns 0x00000000 (0000ms, 10546ms total)
T5414 4079:497 JLINK_WriteReg(R0, 0x08004000)  returns 0x00 (0000ms, 10546ms total)
T5414 4079:497 JLINK_WriteReg(R1, 0x00004000)  returns 0x00 (0000ms, 10546ms total)
T5414 4079:497 JLINK_WriteReg(R2, 0x000000FF)  returns 0x00 (0000ms, 10546ms total)
T5414 4079:497 JLINK_WriteReg(R3, 0x00000000)  returns 0x00 (0000ms, 10546ms total)
T5414 4079:497 JLINK_WriteReg(R4, 0x00000000)  returns 0x00 (0000ms, 10546ms total)
T5414 4079:497 JLINK_WriteReg(R5, 0x00000000)  returns 0x00 (0000ms, 10546ms total)
T5414 4079:497 JLINK_WriteReg(R6, 0x00000000)  returns 0x00 (0000ms, 10546ms total)
T5414 4079:497 JLINK_WriteReg(R7, 0x00000000)  returns 0x00 (0000ms, 10546ms total)
T5414 4079:497 JLINK_WriteReg(R8, 0x00000000)  returns 0x00 (0000ms, 10546ms total)
T5414 4079:497 JLINK_WriteReg(R9, 0x20000184)  returns 0x00 (0000ms, 10546ms total)
T5414 4079:497 JLINK_WriteReg(R10, 0x00000000)  returns 0x00 (0001ms, 10547ms total)
T5414 4079:498 JLINK_WriteReg(R11, 0x00000000)  returns 0x00 (0000ms, 10547ms total)
T5414 4079:498 JLINK_WriteReg(R12, 0x00000000)  returns 0x00 (0000ms, 10547ms total)
T5414 4079:498 JLINK_WriteReg(R13 (SP), 0x20001000)  returns 0x00 (0000ms, 10547ms total)
T5414 4079:498 JLINK_WriteReg(R14, 0x20000001)  returns 0x00 (0000ms, 10547ms total)
T5414 4079:498 JLINK_WriteReg(R15 (PC), 0x20000020)  returns 0x00 (0000ms, 10547ms total)
T5414 4079:498 JLINK_WriteReg(XPSR, 0x01000000)  returns 0x00 (0000ms, 10547ms total)
T5414 4079:498 JLINK_WriteReg(MSP, 0x20001000)  returns 0x00 (0000ms, 10547ms total)
T5414 4079:498 JLINK_WriteReg(PSP, 0x20001000)  returns 0x00 (0000ms, 10547ms total)
T5414 4079:498 JLINK_WriteReg(CFBP, 0x00000000)  returns 0x00 (0000ms, 10547ms total)
T5414 4079:498 JLINK_SetBPEx(Addr = 0x20000000, Type = 0xFFFFFFF2)  returns 0x00000004 (0000ms, 10547ms total)
T5414 4079:498 JLINK_Go() -- CPU_ReadMem(4 bytes @ 0xE0001000) (0006ms, 10553ms total)
T5414 4079:504 JLINK_IsHalted() -- CPU_ReadMem(2 bytes @ 0x20000000)  returns TRUE (0006ms, 10559ms total)
T5414 4079:510 JLINK_ReadReg(R15 (PC))  returns 0x20000000 (0000ms, 10553ms total)
T5414 4079:510 JLINK_ClrBPEx(BPHandle = 0x00000004)  returns 0x00 (0000ms, 10553ms total)
T5414 4079:510 JLINK_ReadReg(R0)  returns 0x00000001 (0000ms, 10553ms total)
T5414 4079:510 JLINK_WriteReg(R0, 0x08004000)  returns 0x00 (0000ms, 10553ms total)
T5414 4079:510 JLINK_WriteReg(R1, 0x00004000)  returns 0x00 (0000ms, 10553ms total)
T5414 4079:510 JLINK_WriteReg(R2, 0x000000FF)  returns 0x00 (0000ms, 10553ms total)
T5414 4079:510 JLINK_WriteReg(R3, 0x00000000)  returns 0x00 (0000ms, 10553ms total)
T5414 4079:510 JLINK_WriteReg(R4, 0x00000000)  returns 0x00 (0000ms, 10553ms total)
T5414 4079:510 JLINK_WriteReg(R5, 0x00000000)  returns 0x00 (0000ms, 10553ms total)
T5414 4079:510 JLINK_WriteReg(R6, 0x00000000)  returns 0x00 (0000ms, 10553ms total)
T5414 4079:510 JLINK_WriteReg(R7, 0x00000000)  returns 0x00 (0000ms, 10553ms total)
T5414 4079:510 JLINK_WriteReg(R8, 0x00000000)  returns 0x00 (0000ms, 10553ms total)
T5414 4079:510 JLINK_WriteReg(R9, 0x20000184)  returns 0x00 (0000ms, 10553ms total)
T5414 4079:510 JLINK_WriteReg(R10, 0x00000000)  returns 0x00 (0000ms, 10553ms total)
T5414 4079:510 JLINK_WriteReg(R11, 0x00000000)  returns 0x00 (0000ms, 10553ms total)
T5414 4079:510 JLINK_WriteReg(R12, 0x00000000)  returns 0x00 (0000ms, 10553ms total)
T5414 4079:510 JLINK_WriteReg(R13 (SP), 0x20001000)  returns 0x00 (0000ms, 10553ms total)
T5414 4079:510 JLINK_WriteReg(R14, 0x20000001)  returns 0x00 (0001ms, 10554ms total)
T5414 4079:511 JLINK_WriteReg(R15 (PC), 0x200000C6)  returns 0x00 (0000ms, 10554ms total)
T5414 4079:511 JLINK_WriteReg(XPSR, 0x01000000)  returns 0x00 (0000ms, 10554ms total)
T5414 4079:511 JLINK_WriteReg(MSP, 0x20001000)  returns 0x00 (0000ms, 10554ms total)
T5414 4079:511 JLINK_WriteReg(PSP, 0x20001000)  returns 0x00 (0000ms, 10554ms total)
T5414 4079:511 JLINK_WriteReg(CFBP, 0x00000000)  returns 0x00 (0000ms, 10554ms total)
T5414 4079:511 JLINK_SetBPEx(Addr = 0x20000000, Type = 0xFFFFFFF2)  returns 0x00000005 (0000ms, 10554ms total)
T5414 4079:511 JLINK_Go() -- CPU_ReadMem(4 bytes @ 0xE0001000) (0004ms, 10558ms total)
T5414 4079:515 JLINK_IsHalted()  returns FALSE (0001ms, 10559ms total)
T5414 4079:620 JLINK_IsHalted()  returns FALSE (0000ms, 10558ms total)
T5414 4079:789 JLINK_IsHalted()  returns FALSE (0001ms, 10559ms total)
T5414 4080:023 JLINK_IsHalted() -- CPU_ReadMem(2 bytes @ 0x20000000)  returns TRUE (0006ms, 10564ms total)
T5414 4080:029 JLINK_ReadReg(R15 (PC))  returns 0x20000000 (0000ms, 10558ms total)
T5414 4080:029 JLINK_ClrBPEx(BPHandle = 0x00000005)  returns 0x00 (0000ms, 10558ms total)
T5414 4080:029 JLINK_ReadReg(R0)  returns 0x00000000 (0000ms, 10558ms total)
T5414 4080:030 JLINK_WriteReg(R0, 0x08008000)  returns 0x00 (0000ms, 10558ms total)
T5414 4080:030 JLINK_WriteReg(R1, 0x00004000)  returns 0x00 (0000ms, 10558ms total)
T5414 4080:030 JLINK_WriteReg(R2, 0x000000FF)  returns 0x00 (0000ms, 10558ms total)
T5414 4080:030 JLINK_WriteReg(R3, 0x00000000)  returns 0x00 (0000ms, 10558ms total)
T5414 4080:030 JLINK_WriteReg(R4, 0x00000000)  returns 0x00 (0000ms, 10558ms total)
T5414 4080:030 JLINK_WriteReg(R5, 0x00000000)  returns 0x00 (0000ms, 10558ms total)
T5414 4080:030 JLINK_WriteReg(R6, 0x00000000)  returns 0x00 (0000ms, 10558ms total)
T5414 4080:030 JLINK_WriteReg(R7, 0x00000000)  returns 0x00 (0000ms, 10558ms total)
T5414 4080:030 JLINK_WriteReg(R8, 0x00000000)  returns 0x00 (0000ms, 10558ms total)
T5414 4080:030 JLINK_WriteReg(R9, 0x20000184)  returns 0x00 (0000ms, 10558ms total)
T5414 4080:031 JLINK_WriteReg(R10, 0x00000000)  returns 0x00 (0000ms, 10559ms total)
T5414 4080:031 JLINK_WriteReg(R11, 0x00000000)  returns 0x00 (0000ms, 10559ms total)
T5414 4080:031 JLINK_WriteReg(R12, 0x00000000)  returns 0x00 (0000ms, 10559ms total)
T5414 4080:031 JLINK_WriteReg(R13 (SP), 0x20001000)  returns 0x00 (0000ms, 10559ms total)
T5414 4080:031 JLINK_WriteReg(R14, 0x20000001)  returns 0x00 (0000ms, 10559ms total)
T5414 4080:031 JLINK_WriteReg(R15 (PC), 0x20000020)  returns 0x00 (0000ms, 10559ms total)
T5414 4080:031 JLINK_WriteReg(XPSR, 0x01000000)  returns 0x00 (0000ms, 10559ms total)
T5414 4080:031 JLINK_WriteReg(MSP, 0x20001000)  returns 0x00 (0000ms, 10559ms total)
T5414 4080:031 JLINK_WriteReg(PSP, 0x20001000)  returns 0x00 (0000ms, 10559ms total)
T5414 4080:031 JLINK_WriteReg(CFBP, 0x00000000)  returns 0x00 (0000ms, 10559ms total)
T5414 4080:031 JLINK_SetBPEx(Addr = 0x20000000, Type = 0xFFFFFFF2)  returns 0x00000006 (0000ms, 10559ms total)
T5414 4080:031 JLINK_Go() -- CPU_ReadMem(4 bytes @ 0xE0001000) (0006ms, 10565ms total)
T5414 4080:037 JLINK_IsHalted() -- CPU_ReadMem(2 bytes @ 0x20000000)  returns TRUE (0006ms, 10571ms total)
T5414 4080:043 JLINK_ReadReg(R15 (PC))  returns 0x20000000 (0000ms, 10565ms total)
T5414 4080:043 JLINK_ClrBPEx(BPHandle = 0x00000006)  returns 0x00 (0001ms, 10566ms total)
T5414 4080:044 JLINK_ReadReg(R0)  returns 0x00000001 (0000ms, 10566ms total)
T5414 4080:044 JLINK_WriteReg(R0, 0x08008000)  returns 0x00 (0000ms, 10566ms total)
T5414 4080:044 JLINK_WriteReg(R1, 0x00004000)  returns 0x00 (0000ms, 10566ms total)
T5414 4080:044 JLINK_WriteReg(R2, 0x000000FF)  returns 0x00 (0000ms, 10566ms total)
T5414 4080:044 JLINK_WriteReg(R3, 0x00000000)  returns 0x00 (0001ms, 10567ms total)
T5414 4080:045 JLINK_WriteReg(R4, 0x00000000)  returns 0x00 (0000ms, 10567ms total)
T5414 4080:045 JLINK_WriteReg(R5, 0x00000000)  returns 0x00 (0000ms, 10567ms total)
T5414 4080:045 JLINK_WriteReg(R6, 0x00000000)  returns 0x00 (0000ms, 10567ms total)
T5414 4080:045 JLINK_WriteReg(R7, 0x00000000)  returns 0x00 (0000ms, 10567ms total)
T5414 4080:045 JLINK_WriteReg(R8, 0x00000000)  returns 0x00 (0001ms, 10568ms total)
T5414 4080:046 JLINK_WriteReg(R9, 0x20000184)  returns 0x00 (0000ms, 10568ms total)
T5414 4080:046 JLINK_WriteReg(R10, 0x00000000)  returns 0x00 (0000ms, 10568ms total)
T5414 4080:046 JLINK_WriteReg(R11, 0x00000000)  returns 0x00 (0000ms, 10568ms total)
T5414 4080:046 JLINK_WriteReg(R12, 0x00000000)  returns 0x00 (0000ms, 10568ms total)
T5414 4080:047 JLINK_WriteReg(R13 (SP), 0x20001000)  returns 0x00 (0000ms, 10569ms total)
T5414 4080:047 JLINK_WriteReg(R14, 0x20000001)  returns 0x00 (0000ms, 10569ms total)
T5414 4080:047 JLINK_WriteReg(R15 (PC), 0x200000C6)  returns 0x00 (0000ms, 10569ms total)
T5414 4080:047 JLINK_WriteReg(XPSR, 0x01000000)  returns 0x00 (0000ms, 10569ms total)
T5414 4080:047 JLINK_WriteReg(MSP, 0x20001000)  returns 0x00 (0000ms, 10569ms total)
T5414 4080:048 JLINK_WriteReg(PSP, 0x20001000)  returns 0x00 (0000ms, 10570ms total)
T5414 4080:048 JLINK_WriteReg(CFBP, 0x00000000)  returns 0x00 (0000ms, 10570ms total)
T5414 4080:048 JLINK_SetBPEx(Addr = 0x20000000, Type = 0xFFFFFFF2)  returns 0x00000007 (0000ms, 10570ms total)
T5414 4080:048 JLINK_Go() -- CPU_ReadMem(4 bytes @ 0xE0001000) (0004ms, 10574ms total)
T5414 4080:052 JLINK_IsHalted()  returns FALSE (0001ms, 10575ms total)
T5414 4080:404 JLINK_IsHalted()  returns FALSE (0001ms, 10575ms total)
T5414 4080:731 JLINK_IsHalted() -- CPU_ReadMem(2 bytes @ 0x20000000)  returns TRUE (0006ms, 10580ms total)
T5414 4080:737 JLINK_ReadReg(R15 (PC))  returns 0x20000000 (0000ms, 10574ms total)
T5414 4080:738 JLINK_ClrBPEx(BPHandle = 0x00000007)  returns 0x00 (0000ms, 10574ms total)
T5414 4080:738 JLINK_ReadReg(R0)  returns 0x00000000 (0000ms, 10574ms total)
T5414 4080:740 JLINK_WriteReg(R0, 0x0800C000)  returns 0x00 (0000ms, 10574ms total)
T5414 4080:740 JLINK_WriteReg(R1, 0x00004000)  returns 0x00 (0000ms, 10574ms total)
T5414 4080:740 JLINK_WriteReg(R2, 0x000000FF)  returns 0x00 (0000ms, 10574ms total)
T5414 4080:740 JLINK_WriteReg(R3, 0x00000000)  returns 0x00 (0001ms, 10575ms total)
T5414 4080:741 JLINK_WriteReg(R4, 0x00000000)  returns 0x00 (0000ms, 10575ms total)
T5414 4080:741 JLINK_WriteReg(R5, 0x00000000)  returns 0x00 (0000ms, 10575ms total)
T5414 4080:741 JLINK_WriteReg(R6, 0x00000000)  returns 0x00 (0000ms, 10575ms total)
T5414 4080:741 JLINK_WriteReg(R7, 0x00000000)  returns 0x00 (0000ms, 10575ms total)
T5414 4080:741 JLINK_WriteReg(R8, 0x00000000)  returns 0x00 (0000ms, 10575ms total)
T5414 4080:742 JLINK_WriteReg(R9, 0x20000184)  returns 0x00 (0000ms, 10576ms total)
T5414 4080:742 JLINK_WriteReg(R10, 0x00000000)  returns 0x00 (0000ms, 10576ms total)
T5414 4080:742 JLINK_WriteReg(R11, 0x00000000)  returns 0x00 (0000ms, 10576ms total)
T5414 4080:742 JLINK_WriteReg(R12, 0x00000000)  returns 0x00 (0000ms, 10576ms total)
T5414 4080:742 JLINK_WriteReg(R13 (SP), 0x20001000)  returns 0x00 (0000ms, 10576ms total)
T5414 4080:742 JLINK_WriteReg(R14, 0x20000001)  returns 0x00 (0001ms, 10577ms total)
T5414 4080:743 JLINK_WriteReg(R15 (PC), 0x20000020)  returns 0x00 (0000ms, 10577ms total)
T5414 4080:743 JLINK_WriteReg(XPSR, 0x01000000)  returns 0x00 (0000ms, 10577ms total)
T5414 4080:743 JLINK_WriteReg(MSP, 0x20001000)  returns 0x00 (0000ms, 10577ms total)
T5414 4080:743 JLINK_WriteReg(PSP, 0x20001000)  returns 0x00 (0000ms, 10577ms total)
T5414 4080:743 JLINK_WriteReg(CFBP, 0x00000000)  returns 0x00 (0001ms, 10578ms total)
T5414 4080:744 JLINK_SetBPEx(Addr = 0x20000000, Type = 0xFFFFFFF2)  returns 0x00000008 (0000ms, 10578ms total)
T5414 4080:744 JLINK_Go() -- CPU_ReadMem(4 bytes @ 0xE0001000) (0004ms, 10582ms total)
T5414 4080:748 JLINK_IsHalted() -- CPU_ReadMem(2 bytes @ 0x20000000)  returns TRUE (0007ms, 10589ms total)
T5414 4080:755 JLINK_ReadReg(R15 (PC))  returns 0x20000000 (0000ms, 10582ms total)
T5414 4080:755 JLINK_ClrBPEx(BPHandle = 0x00000008)  returns 0x00 (0000ms, 10582ms total)
T5414 4080:755 JLINK_ReadReg(R0)  returns 0x00000001 (0000ms, 10582ms total)
T5414 4080:755 JLINK_WriteReg(R0, 0x0800C000)  returns 0x00 (0000ms, 10582ms total)
T5414 4080:757 JLINK_WriteReg(R1, 0x00004000)  returns 0x00 (0000ms, 10584ms total)
T5414 4080:757 JLINK_WriteReg(R2, 0x000000FF)  returns 0x00 (0000ms, 10584ms total)
T5414 4080:757 JLINK_WriteReg(R3, 0x00000000)  returns 0x00 (0000ms, 10584ms total)
T5414 4080:757 JLINK_WriteReg(R4, 0x00000000)  returns 0x00 (0000ms, 10584ms total)
T5414 4080:757 JLINK_WriteReg(R5, 0x00000000)  returns 0x00 (0000ms, 10584ms total)
T5414 4080:757 JLINK_WriteReg(R6, 0x00000000)  returns 0x00 (0000ms, 10584ms total)
T5414 4080:757 JLINK_WriteReg(R7, 0x00000000)  returns 0x00 (0000ms, 10584ms total)
T5414 4080:757 JLINK_WriteReg(R8, 0x00000000)  returns 0x00 (0000ms, 10584ms total)
T5414 4080:757 JLINK_WriteReg(R9, 0x20000184)  returns 0x00 (0000ms, 10584ms total)
T5414 4080:757 JLINK_WriteReg(R10, 0x00000000)  returns 0x00 (0000ms, 10584ms total)
T5414 4080:757 JLINK_WriteReg(R11, 0x00000000)  returns 0x00 (0001ms, 10585ms total)
T5414 4080:758 JLINK_WriteReg(R12, 0x00000000)  returns 0x00 (0000ms, 10585ms total)
T5414 4080:758 JLINK_WriteReg(R13 (SP), 0x20001000)  returns 0x00 (0000ms, 10585ms total)
T5414 4080:758 JLINK_WriteReg(R14, 0x20000001)  returns 0x00 (0000ms, 10585ms total)
T5414 4080:758 JLINK_WriteReg(R15 (PC), 0x200000C6)  returns 0x00 (0000ms, 10585ms total)
T5414 4080:758 JLINK_WriteReg(XPSR, 0x01000000)  returns 0x00 (0001ms, 10586ms total)
T5414 4080:759 JLINK_WriteReg(MSP, 0x20001000)  returns 0x00 (0000ms, 10586ms total)
T5414 4080:759 JLINK_WriteReg(PSP, 0x20001000)  returns 0x00 (0000ms, 10586ms total)
T5414 4080:759 JLINK_WriteReg(CFBP, 0x00000000)  returns 0x00 (0000ms, 10586ms total)
T5414 4080:759 JLINK_SetBPEx(Addr = 0x20000000, Type = 0xFFFFFFF2)  returns 0x00000009 (0000ms, 10586ms total)
T5414 4080:759 JLINK_Go() -- CPU_ReadMem(4 bytes @ 0xE0001000) (0005ms, 10591ms total)
T5414 4080:764 JLINK_IsHalted()  returns FALSE (0001ms, 10592ms total)
T5414 4080:811 JLINK_IsHalted()  returns FALSE (0001ms, 10592ms total)
T5414 4080:856 JLINK_IsHalted()  returns FALSE (0001ms, 10592ms total)
T5414 4080:865 JLINK_IsHalted()  returns FALSE (0001ms, 10592ms total)
T5414 4080:868 JLINK_IsHalted()  returns FALSE (0001ms, 10592ms total)
T5414 4080:871 JLINK_IsHalted()  returns FALSE (0001ms, 10592ms total)
T5414 4080:887 JLINK_IsHalted()  returns FALSE (0001ms, 10592ms total)
T5414 4080:896 JLINK_IsHalted()  returns FALSE (0001ms, 10592ms total)
T5414 4080:900 JLINK_IsHalted()  returns FALSE (0000ms, 10591ms total)
T5414 4080:903 JLINK_IsHalted()  returns FALSE (0000ms, 10591ms total)
T5414 4080:912 JLINK_IsHalted()  returns FALSE (0001ms, 10592ms total)
T5414 4080:915 JLINK_IsHalted()  returns FALSE (0001ms, 10592ms total)
T5414 4080:918 JLINK_IsHalted()  returns FALSE (0001ms, 10592ms total)
T5414 4080:943 JLINK_IsHalted()  returns FALSE (0001ms, 10592ms total)
T5414 4080:946 JLINK_IsHalted()  returns FALSE (0001ms, 10592ms total)
T5414 4080:949 JLINK_IsHalted()  returns FALSE (0000ms, 10591ms total)
T5414 4080:958 JLINK_IsHalted()  returns FALSE (0000ms, 10591ms total)
T5414 4080:961 JLINK_IsHalted()  returns FALSE (0001ms, 10592ms total)
T5414 4080:964 JLINK_IsHalted()  returns FALSE (0001ms, 10592ms total)
T5414 4080:980 JLINK_IsHalted()  returns FALSE (0001ms, 10592ms total)
T5414 4080:989 JLINK_IsHalted()  returns FALSE (0001ms, 10592ms total)
T5414 4080:992 JLINK_IsHalted()  returns FALSE (0001ms, 10592ms total)
T5414 4080:996 JLINK_IsHalted()  returns FALSE (0001ms, 10592ms total)
T5414 4081:005 JLINK_IsHalted()  returns FALSE (0001ms, 10592ms total)
T5414 4081:008 JLINK_IsHalted()  returns FALSE (0001ms, 10592ms total)
T5414 4081:011 JLINK_IsHalted()  returns FALSE (0000ms, 10591ms total)
T5414 4081:039 JLINK_IsHalted()  returns FALSE (0001ms, 10592ms total)
T5414 4081:042 JLINK_IsHalted()  returns FALSE (0001ms, 10592ms total)
T5414 4081:052 JLINK_IsHalted()  returns FALSE (0001ms, 10592ms total)
T5414 4081:055 JLINK_IsHalted()  returns FALSE (0001ms, 10592ms total)
T5414 4081:058 JLINK_IsHalted()  returns FALSE (0001ms, 10592ms total)
T5414 4081:073 JLINK_IsHalted()  returns FALSE (0001ms, 10592ms total)
T5414 4081:082 JLINK_IsHalted()  returns FALSE (0001ms, 10592ms total)
T5414 4081:086 JLINK_IsHalted()  returns FALSE (0001ms, 10592ms total)
T5414 4081:089 JLINK_IsHalted()  returns FALSE (0001ms, 10592ms total)
T5414 4081:098 JLINK_IsHalted()  returns FALSE (0001ms, 10592ms total)
T5414 4081:101 JLINK_IsHalted()  returns FALSE (0001ms, 10592ms total)
T5414 4081:104 JLINK_IsHalted()  returns FALSE (0001ms, 10592ms total)
T5414 4081:107 JLINK_IsHalted()  returns FALSE (0001ms, 10592ms total)
T5414 4081:121 JLINK_IsHalted()  returns FALSE (0001ms, 10592ms total)
T5414 4081:130 JLINK_IsHalted() -- CPU_ReadMem(2 bytes @ 0x20000000)  returns TRUE (0006ms, 10597ms total)
T5414 4081:136 JLINK_ReadReg(R15 (PC))  returns 0x20000000 (0000ms, 10591ms total)
T5414 4081:136 JLINK_ClrBPEx(BPHandle = 0x00000009)  returns 0x00 (0000ms, 10591ms total)
T5414 4081:136 JLINK_ReadReg(R0)  returns 0x00000000 (0000ms, 10591ms total)
T5414 4081:137 JLINK_WriteReg(R0, 0x00000001)  returns 0x00 (0000ms, 10591ms total)
T5414 4081:137 JLINK_WriteReg(R1, 0x00004000)  returns 0x00 (0000ms, 10591ms total)
T5414 4081:137 JLINK_WriteReg(R2, 0x000000FF)  returns 0x00 (0000ms, 10591ms total)
T5414 4081:137 JLINK_WriteReg(R3, 0x00000000)  returns 0x00 (0000ms, 10591ms total)
T5414 4081:137 JLINK_WriteReg(R4, 0x00000000)  returns 0x00 (0000ms, 10591ms total)
T5414 4081:137 JLINK_WriteReg(R5, 0x00000000)  returns 0x00 (0001ms, 10592ms total)
T5414 4081:138 JLINK_WriteReg(R6, 0x00000000)  returns 0x00 (0000ms, 10592ms total)
T5414 4081:138 JLINK_WriteReg(R7, 0x00000000)  returns 0x00 (0000ms, 10592ms total)
T5414 4081:138 JLINK_WriteReg(R8, 0x00000000)  returns 0x00 (0000ms, 10592ms total)
T5414 4081:138 JLINK_WriteReg(R9, 0x20000184)  returns 0x00 (0000ms, 10592ms total)
T5414 4081:138 JLINK_WriteReg(R10, 0x00000000)  returns 0x00 (0000ms, 10592ms total)
T5414 4081:138 JLINK_WriteReg(R11, 0x00000000)  returns 0x00 (0000ms, 10592ms total)
T5414 4081:138 JLINK_WriteReg(R12, 0x00000000)  returns 0x00 (0000ms, 10592ms total)
T5414 4081:138 JLINK_WriteReg(R13 (SP), 0x20001000)  returns 0x00 (0001ms, 10593ms total)
T5414 4081:139 JLINK_WriteReg(R14, 0x20000001)  returns 0x00 (0000ms, 10593ms total)
T5414 4081:139 JLINK_WriteReg(R15 (PC), 0x2000008C)  returns 0x00 (0000ms, 10593ms total)
T5414 4081:139 JLINK_WriteReg(XPSR, 0x01000000)  returns 0x00 (0000ms, 10593ms total)
T5414 4081:139 JLINK_WriteReg(MSP, 0x20001000)  returns 0x00 (0000ms, 10593ms total)
T5414 4081:139 JLINK_WriteReg(PSP, 0x20001000)  returns 0x00 (0000ms, 10593ms total)
T5414 4081:139 JLINK_WriteReg(CFBP, 0x00000000)  returns 0x00 (0000ms, 10593ms total)
T5414 4081:139 JLINK_SetBPEx(Addr = 0x20000000, Type = 0xFFFFFFF2)  returns 0x0000000A (0000ms, 10593ms total)
T5414 4081:139 JLINK_Go() -- CPU_ReadMem(4 bytes @ 0xE0001000) (0006ms, 10599ms total)
T5414 4081:145 JLINK_IsHalted() -- CPU_ReadMem(2 bytes @ 0x20000000)  returns TRUE (0006ms, 10605ms total)
T5414 4081:151 JLINK_ReadReg(R15 (PC))  returns 0x20000000 (0000ms, 10599ms total)
T5414 4081:151 JLINK_ClrBPEx(BPHandle = 0x0000000A)  returns 0x00 (0000ms, 10599ms total)
T5414 4081:151 JLINK_ReadReg(R0)  returns 0x00000000 (0000ms, 10599ms total)
T5414 4081:219 JLINK_WriteMem(0x20000000, 0x0188 Bytes, ...) - Data: 00 BE 0A E0 0D 78 2D 06 68 40 08 24 40 00 00 D3 ... -- CPU_WriteMem(392 bytes @ 0x20000000)  returns 0x188 (0005ms, 10604ms total)
T5414 4081:224 JLINK_WriteReg(R0, 0x08000000)  returns 0x00 (0000ms, 10604ms total)
T5414 4081:224 JLINK_WriteReg(R1, 0x017D7840)  returns 0x00 (0000ms, 10604ms total)
T5414 4081:224 JLINK_WriteReg(R2, 0x00000002)  returns 0x00 (0000ms, 10604ms total)
T5414 4081:224 JLINK_WriteReg(R3, 0x00000000)  returns 0x00 (0000ms, 10604ms total)
T5414 4081:224 JLINK_WriteReg(R4, 0x00000000)  returns 0x00 (0000ms, 10604ms total)
T5414 4081:224 JLINK_WriteReg(R5, 0x00000000)  returns 0x00 (0000ms, 10604ms total)
T5414 4081:225 JLINK_WriteReg(R6, 0x00000000)  returns 0x00 (0000ms, 10605ms total)
T5414 4081:225 JLINK_WriteReg(R7, 0x00000000)  returns 0x00 (0000ms, 10605ms total)
T5414 4081:225 JLINK_WriteReg(R8, 0x00000000)  returns 0x00 (0000ms, 10605ms total)
T5414 4081:225 JLINK_WriteReg(R9, 0x20000184)  returns 0x00 (0000ms, 10605ms total)
T5414 4081:225 JLINK_WriteReg(R10, 0x00000000)  returns 0x00 (0000ms, 10605ms total)
T5414 4081:225 JLINK_WriteReg(R11, 0x00000000)  returns 0x00 (0001ms, 10606ms total)
T5414 4081:226 JLINK_WriteReg(R12, 0x00000000)  returns 0x00 (0000ms, 10606ms total)
T5414 4081:226 JLINK_WriteReg(R13 (SP), 0x20001000)  returns 0x00 (0000ms, 10606ms total)
T5414 4081:226 JLINK_WriteReg(R14, 0x20000001)  returns 0x00 (0000ms, 10606ms total)
T5414 4081:227 JLINK_WriteReg(R15 (PC), 0x2000005E)  returns 0x00 (0000ms, 10606ms total)
T5414 4081:227 JLINK_WriteReg(XPSR, 0x01000000)  returns 0x00 (0000ms, 10606ms total)
T5414 4081:227 JLINK_WriteReg(MSP, 0x20001000)  returns 0x00 (0000ms, 10606ms total)
T5414 4081:227 JLINK_WriteReg(PSP, 0x20001000)  returns 0x00 (0000ms, 10606ms total)
T5414 4081:227 JLINK_WriteReg(CFBP, 0x00000000)  returns 0x00 (0000ms, 10606ms total)
T5414 4081:227 JLINK_SetBPEx(Addr = 0x20000000, Type = 0xFFFFFFF2) -- CPU_ReadMem(2 bytes @ 0x20000000)  returns 0x0000000B (0002ms, 10608ms total)
T5414 4081:229 JLINK_Go() -- CPU_WriteMem(2 bytes @ 0x20000000) -- CPU_ReadMem(4 bytes @ 0xE0001000) (0006ms, 10614ms total)
T5414 4081:235 JLINK_IsHalted() -- CPU_ReadMem(2 bytes @ 0x20000000)  returns TRUE (0006ms, 10620ms total)
T5414 4081:241 JLINK_ReadReg(R15 (PC))  returns 0x20000000 (0000ms, 10614ms total)
T5414 4081:241 JLINK_ClrBPEx(BPHandle = 0x0000000B)  returns 0x00 (0000ms, 10614ms total)
T5414 4081:241 JLINK_ReadReg(R0)  returns 0x00000000 (0001ms, 10615ms total)
T5414 4081:243 JLINK_WriteMem(0x20000188, 0x0278 Bytes, ...) - Data: 40 24 00 20 75 92 00 08 AD 0D 00 08 AF 0D 00 08 ... -- CPU_WriteMem(632 bytes @ 0x20000188)  returns 0x278 (0007ms, 10622ms total)
T5414 4081:250 JLINK_WriteMem(0x20000400, 0x0188 Bytes, ...) - Data: 09 F0 31 85 E3 29 0A F0 67 80 F3 29 0A F0 6C 80 ... -- CPU_WriteMem(392 bytes @ 0x20000400)  returns 0x188 (0004ms, 10626ms total)
T5414 4081:254 JLINK_WriteReg(R0, 0x08000000)  returns 0x00 (0000ms, 10626ms total)
T5414 4081:254 JLINK_WriteReg(R1, 0x00000400)  returns 0x00 (0000ms, 10626ms total)
T5414 4081:254 JLINK_WriteReg(R2, 0x20000188)  returns 0x00 (0000ms, 10626ms total)
T5414 4081:254 JLINK_WriteReg(R3, 0x00000000)  returns 0x00 (0000ms, 10626ms total)
T5414 4081:254 JLINK_WriteReg(R4, 0x00000000)  returns 0x00 (0002ms, 10628ms total)
T5414 4081:256 JLINK_WriteReg(R5, 0x00000000)  returns 0x00 (0000ms, 10628ms total)
T5414 4081:256 JLINK_WriteReg(R6, 0x00000000)  returns 0x00 (0000ms, 10628ms total)
T5414 4081:256 JLINK_WriteReg(R7, 0x00000000)  returns 0x00 (0000ms, 10628ms total)
T5414 4081:256 JLINK_WriteReg(R8, 0x00000000)  returns 0x00 (0000ms, 10628ms total)
T5414 4081:256 JLINK_WriteReg(R9, 0x20000184)  returns 0x00 (0001ms, 10629ms total)
T5414 4081:257 JLINK_WriteReg(R10, 0x00000000)  returns 0x00 (0000ms, 10629ms total)
T5414 4081:257 JLINK_WriteReg(R11, 0x00000000)  returns 0x00 (0000ms, 10629ms total)
T5414 4081:257 JLINK_WriteReg(R12, 0x00000000)  returns 0x00 (0000ms, 10629ms total)
T5414 4081:257 JLINK_WriteReg(R13 (SP), 0x20001000)  returns 0x00 (0000ms, 10629ms total)
T5414 4081:257 JLINK_WriteReg(R14, 0x20000001)  returns 0x00 (0000ms, 10629ms total)
T5414 4081:258 JLINK_WriteReg(R15 (PC), 0x20000112)  returns 0x00 (0000ms, 10630ms total)
T5414 4081:258 JLINK_WriteReg(XPSR, 0x01000000)  returns 0x00 (0000ms, 10630ms total)
T5414 4081:258 JLINK_WriteReg(MSP, 0x20001000)  returns 0x00 (0000ms, 10630ms total)
T5414 4081:258 JLINK_WriteReg(PSP, 0x20001000)  returns 0x00 (0000ms, 10630ms total)
T5414 4081:258 JLINK_WriteReg(CFBP, 0x00000000)  returns 0x00 (0000ms, 10630ms total)
T5414 4081:258 JLINK_SetBPEx(Addr = 0x20000000, Type = 0xFFFFFFF2)  returns 0x0000000C (0000ms, 10630ms total)
T5414 4081:258 JLINK_Go() -- CPU_ReadMem(4 bytes @ 0xE0001000) (0005ms, 10635ms total)
T5414 4081:263 JLINK_IsHalted()  returns FALSE (0001ms, 10636ms total)
T5414 4081:336 JLINK_IsHalted() -- CPU_ReadMem(2 bytes @ 0x20000000)  returns TRUE (0006ms, 10641ms total)
T5414 4081:343 JLINK_ReadReg(R15 (PC))  returns 0x20000000 (0000ms, 10635ms total)
T5414 4081:343 JLINK_ClrBPEx(BPHandle = 0x0000000C)  returns 0x00 (0000ms, 10635ms total)
T5414 4081:343 JLINK_ReadReg(R0)  returns 0x00000000 (0000ms, 10635ms total)
T5414 4081:345 JLINK_WriteMem(0x20000188, 0x0278 Bytes, ...) - Data: 40 42 00 EE 10 0A B8 EE C0 0A DF ED CE 0A 20 EE ... -- CPU_WriteMem(632 bytes @ 0x20000188)  returns 0x278 (0006ms, 10641ms total)
T5414 4081:351 JLINK_WriteMem(0x20000400, 0x0188 Bytes, ...) - Data: 3D 0A 20 EE 20 0A BD EE C0 0A 8D ED 00 0A 1E E1 ... -- CPU_WriteMem(392 bytes @ 0x20000400)  returns 0x188 (0005ms, 10646ms total)
T5414 4081:356 JLINK_WriteReg(R0, 0x08000400)  returns 0x00 (0000ms, 10646ms total)
T5414 4081:356 JLINK_WriteReg(R1, 0x00000400)  returns 0x00 (0000ms, 10646ms total)
T5414 4081:356 JLINK_WriteReg(R2, 0x20000188)  returns 0x00 (0000ms, 10646ms total)
T5414 4081:356 JLINK_WriteReg(R3, 0x00000000)  returns 0x00 (0000ms, 10646ms total)
T5414 4081:357 JLINK_WriteReg(R4, 0x00000000)  returns 0x00 (0000ms, 10646ms total)
T5414 4081:357 JLINK_WriteReg(R5, 0x00000000)  returns 0x00 (0000ms, 10646ms total)
T5414 4081:357 JLINK_WriteReg(R6, 0x00000000)  returns 0x00 (0000ms, 10646ms total)
T5414 4081:357 JLINK_WriteReg(R7, 0x00000000)  returns 0x00 (0000ms, 10646ms total)
T5414 4081:357 JLINK_WriteReg(R8, 0x00000000)  returns 0x00 (0000ms, 10646ms total)
T5414 4081:357 JLINK_WriteReg(R9, 0x20000184)  returns 0x00 (0001ms, 10647ms total)
T5414 4081:358 JLINK_WriteReg(R10, 0x00000000)  returns 0x00 (0000ms, 10647ms total)
T5414 4081:358 JLINK_WriteReg(R11, 0x00000000)  returns 0x00 (0000ms, 10647ms total)
T5414 4081:358 JLINK_WriteReg(R12, 0x00000000)  returns 0x00 (0000ms, 10647ms total)
T5414 4081:358 JLINK_WriteReg(R13 (SP), 0x20001000)  returns 0x00 (0001ms, 10648ms total)
T5414 4081:359 JLINK_WriteReg(R14, 0x20000001)  returns 0x00 (0000ms, 10648ms total)
T5414 4081:359 JLINK_WriteReg(R15 (PC), 0x20000112)  returns 0x00 (0000ms, 10648ms total)
T5414 4081:359 JLINK_WriteReg(XPSR, 0x01000000)  returns 0x00 (0000ms, 10648ms total)
T5414 4081:359 JLINK_WriteReg(MSP, 0x20001000)  returns 0x00 (0000ms, 10648ms total)
T5414 4081:359 JLINK_WriteReg(PSP, 0x20001000)  returns 0x00 (0001ms, 10649ms total)
T5414 4081:360 JLINK_WriteReg(CFBP, 0x00000000)  returns 0x00 (0000ms, 10649ms total)
T5414 4081:360 JLINK_SetBPEx(Addr = 0x20000000, Type = 0xFFFFFFF2)  returns 0x0000000D (0000ms, 10649ms total)
T5414 4081:360 JLINK_Go() -- CPU_ReadMem(4 bytes @ 0xE0001000) (0004ms, 10653ms total)
T5414 4081:364 JLINK_IsHalted()  returns FALSE (0002ms, 10655ms total)
T5414 4081:414 JLINK_IsHalted() -- CPU_ReadMem(2 bytes @ 0x20000000)  returns TRUE (0006ms, 10659ms total)
T5414 4081:420 JLINK_ReadReg(R15 (PC))  returns 0x20000000 (0000ms, 10653ms total)
T5414 4081:420 JLINK_ClrBPEx(BPHandle = 0x0000000D)  returns 0x00 (0001ms, 10654ms total)
T5414 4081:421 JLINK_ReadReg(R0)  returns 0x00000000 (0000ms, 10654ms total)
T5414 4081:423 JLINK_WriteMem(0x20000188, 0x0278 Bytes, ...) - Data: 90 ED 00 0A D6 48 D0 ED 00 0A 30 EE 60 0A B1 EE ... -- CPU_WriteMem(632 bytes @ 0x20000188)  returns 0x278 (0007ms, 10661ms total)
T5414 4081:430 JLINK_WriteMem(0x20000400, 0x0188 Bytes, ...) - Data: 64 28 2D DD 9F ED 5C 3B 9F ED 5D 2B 9F ED 5E 1B ... -- CPU_WriteMem(392 bytes @ 0x20000400)  returns 0x188 (0004ms, 10665ms total)
T5414 4081:434 JLINK_WriteReg(R0, 0x08000800)  returns 0x00 (0000ms, 10665ms total)
T5414 4081:434 JLINK_WriteReg(R1, 0x00000400)  returns 0x00 (0000ms, 10665ms total)
T5414 4081:434 JLINK_WriteReg(R2, 0x20000188)  returns 0x00 (0001ms, 10666ms total)
T5414 4081:435 JLINK_WriteReg(R3, 0x00000000)  returns 0x00 (0000ms, 10666ms total)
T5414 4081:435 JLINK_WriteReg(R4, 0x00000000)  returns 0x00 (0000ms, 10666ms total)
T5414 4081:435 JLINK_WriteReg(R5, 0x00000000)  returns 0x00 (0000ms, 10666ms total)
T5414 4081:435 JLINK_WriteReg(R6, 0x00000000)  returns 0x00 (0000ms, 10666ms total)
T5414 4081:435 JLINK_WriteReg(R7, 0x00000000)  returns 0x00 (0001ms, 10667ms total)
T5414 4081:436 JLINK_WriteReg(R8, 0x00000000)  returns 0x00 (0000ms, 10667ms total)
T5414 4081:436 JLINK_WriteReg(R9, 0x20000184)  returns 0x00 (0000ms, 10667ms total)
T5414 4081:436 JLINK_WriteReg(R10, 0x00000000)  returns 0x00 (0000ms, 10667ms total)
T5414 4081:436 JLINK_WriteReg(R11, 0x00000000)  returns 0x00 (0000ms, 10667ms total)
T5414 4081:436 JLINK_WriteReg(R12, 0x00000000)  returns 0x00 (0001ms, 10668ms total)
T5414 4081:437 JLINK_WriteReg(R13 (SP), 0x20001000)  returns 0x00 (0000ms, 10668ms total)
T5414 4081:437 JLINK_WriteReg(R14, 0x20000001)  returns 0x00 (0000ms, 10668ms total)
T5414 4081:437 JLINK_WriteReg(R15 (PC), 0x20000112)  returns 0x00 (0000ms, 10668ms total)
T5414 4081:437 JLINK_WriteReg(XPSR, 0x01000000)  returns 0x00 (0000ms, 10668ms total)
T5414 4081:437 JLINK_WriteReg(MSP, 0x20001000)  returns 0x00 (0000ms, 10668ms total)
T5414 4081:438 JLINK_WriteReg(PSP, 0x20001000)  returns 0x00 (0000ms, 10668ms total)
T5414 4081:438 JLINK_WriteReg(CFBP, 0x00000000)  returns 0x00 (0000ms, 10668ms total)
T5414 4081:438 JLINK_SetBPEx(Addr = 0x20000000, Type = 0xFFFFFFF2)  returns 0x0000000E (0000ms, 10668ms total)
T5414 4081:438 JLINK_Go() -- CPU_ReadMem(4 bytes @ 0xE0001000) (0004ms, 10672ms total)
T5414 4081:442 JLINK_IsHalted()  returns FALSE (0001ms, 10673ms total)
T5414 4081:506 JLINK_IsHalted() -- CPU_ReadMem(2 bytes @ 0x20000000)  returns TRUE (0006ms, 10678ms total)
T5414 4081:512 JLINK_ReadReg(R15 (PC))  returns 0x20000000 (0000ms, 10672ms total)
T5414 4081:512 JLINK_ClrBPEx(BPHandle = 0x0000000E)  returns 0x00 (0000ms, 10672ms total)
T5414 4081:512 JLINK_ReadReg(R0)  returns 0x00000000 (0001ms, 10673ms total)
T5414 4081:514 JLINK_WriteMem(0x20000188, 0x0278 Bytes, ...) - Data: 8A 6F 56 B4 21 84 3E 40 B4 0C 48 2D 9A 9E 5D 40 ... -- CPU_WriteMem(632 bytes @ 0x20000188)  returns 0x278 (0007ms, 10680ms total)
T5414 4081:521 JLINK_WriteMem(0x20000400, 0x0188 Bytes, ...) - Data: 9D 48 90 ED 02 0A 8D ED 01 0A 9D F8 04 20 20 46 ... -- CPU_WriteMem(392 bytes @ 0x20000400)  returns 0x188 (0004ms, 10684ms total)
T5414 4081:525 JLINK_WriteReg(R0, 0x08000C00)  returns 0x00 (0000ms, 10684ms total)
T5414 4081:525 JLINK_WriteReg(R1, 0x00000400)  returns 0x00 (0000ms, 10684ms total)
T5414 4081:525 JLINK_WriteReg(R2, 0x20000188)  returns 0x00 (0000ms, 10684ms total)
T5414 4081:526 JLINK_WriteReg(R3, 0x00000000)  returns 0x00 (0000ms, 10685ms total)
T5414 4081:526 JLINK_WriteReg(R4, 0x00000000)  returns 0x00 (0000ms, 10685ms total)
T5414 4081:526 JLINK_WriteReg(R5, 0x00000000)  returns 0x00 (0000ms, 10685ms total)
T5414 4081:526 JLINK_WriteReg(R6, 0x00000000)  returns 0x00 (0000ms, 10685ms total)
T5414 4081:526 JLINK_WriteReg(R7, 0x00000000)  returns 0x00 (0000ms, 10685ms total)
T5414 4081:526 JLINK_WriteReg(R8, 0x00000000)  returns 0x00 (0001ms, 10686ms total)
T5414 4081:527 JLINK_WriteReg(R9, 0x20000184)  returns 0x00 (0000ms, 10686ms total)
T5414 4081:527 JLINK_WriteReg(R10, 0x00000000)  returns 0x00 (0000ms, 10686ms total)
T5414 4081:527 JLINK_WriteReg(R11, 0x00000000)  returns 0x00 (0000ms, 10686ms total)
T5414 4081:527 JLINK_WriteReg(R12, 0x00000000)  returns 0x00 (0000ms, 10686ms total)
T5414 4081:527 JLINK_WriteReg(R13 (SP), 0x20001000)  returns 0x00 (0001ms, 10687ms total)
T5414 4081:528 JLINK_WriteReg(R14, 0x20000001)  returns 0x00 (0000ms, 10687ms total)
T5414 4081:528 JLINK_WriteReg(R15 (PC), 0x20000112)  returns 0x00 (0000ms, 10687ms total)
T5414 4081:528 JLINK_WriteReg(XPSR, 0x01000000)  returns 0x00 (0000ms, 10687ms total)
T5414 4081:528 JLINK_WriteReg(MSP, 0x20001000)  returns 0x00 (0000ms, 10687ms total)
T5414 4081:528 JLINK_WriteReg(PSP, 0x20001000)  returns 0x00 (0001ms, 10688ms total)
T5414 4081:529 JLINK_WriteReg(CFBP, 0x00000000)  returns 0x00 (0000ms, 10688ms total)
T5414 4081:529 JLINK_SetBPEx(Addr = 0x20000000, Type = 0xFFFFFFF2)  returns 0x0000000F (0000ms, 10688ms total)
T5414 4081:529 JLINK_Go() -- CPU_ReadMem(4 bytes @ 0xE0001000) (0005ms, 10693ms total)
T5414 4081:534 JLINK_IsHalted()  returns FALSE (0002ms, 10695ms total)
T5414 4081:570 JLINK_IsHalted() -- CPU_ReadMem(2 bytes @ 0x20000000)  returns TRUE (0006ms, 10699ms total)
T5414 4081:576 JLINK_ReadReg(R15 (PC))  returns 0x20000000 (0000ms, 10693ms total)
T5414 4081:576 JLINK_ClrBPEx(BPHandle = 0x0000000F)  returns 0x00 (0000ms, 10693ms total)
T5414 4081:576 JLINK_ReadReg(R0)  returns 0x00000000 (0001ms, 10694ms total)
T5414 4081:579 JLINK_WriteMem(0x20000188, 0x0278 Bytes, ...) - Data: 3E 48 00 78 40 1C 3D 49 08 70 08 46 00 78 0A 28 ... -- CPU_WriteMem(632 bytes @ 0x20000188)  returns 0x278 (0006ms, 10700ms total)
T5414 4081:585 JLINK_WriteMem(0x20000400, 0x0188 Bytes, ...) - Data: 40 78 02 28 11 D1 A1 48 80 78 01 28 0D D1 9F 48 ... -- CPU_WriteMem(392 bytes @ 0x20000400)  returns 0x188 (0005ms, 10705ms total)
T5414 4081:590 JLINK_WriteReg(R0, 0x08001000)  returns 0x00 (0000ms, 10705ms total)
